! Touchstone file from project 50
! Exported from HFSS 2014.0.0
! Variables:
!  H_trim = 70mm
!  Hgnd = 10mm
!  Hh = 63mm
!  Lgnd = 1mm
!  N = 0.934827978339152
!  Nseg = 50
!  Rb = 9mm
!  Rg = 21.75mm
!  Rl = 25ohm
!  Rload = 23ohm
!  Rt = 7.2mm
!  alpha = 50deg
!  cap_h = 1mm
!  cut_r = 1.5mm
!  dh = 1mm
!  dz = 0.1mm
!  handness = -1
!  hd = 2mm
!  hd_int = 1mm
!  l23 = 3mm
!  lambda = 140mm
!  w = 0.836660026534076mm
!  w23 = 1mm
# GHZ S MA R 50.000000
! Terminal data exported
! Port[1] = p1
1                0.684059571607621 12.8561606009521 
1.01             0.67413317908864 10.8380625135803 
1.02             0.663819047417468 8.81317181893938 
1.03             0.653014761357108 6.78643350497487 
1.04             0.641621557674252 4.76574431546596 
1.05             0.629552355309062 2.76260644638846 
1.06             0.616742797444784 0.792740990980716 
1.07             0.603165261713566 -1.12347947662428 
1.08             0.588845007422554 -2.96098897538619 
1.09             0.573876467397437 -4.69064851933203 
1.1              0.558436324865351 -6.28081972624243 
1.11             0.542788888185692 -7.70010715109237 
1.12             0.52727909777003 -8.92126213373466 
1.13             0.512310007969819 -9.92585466829003 
1.14             0.498305069116411 -10.7088431967986 
1.15             0.485660314188467 -11.2818010319763 
1.16             0.474695873359182 -11.6735633660787 
1.17             0.465617913654106 -11.9276234955109 
1.18             0.45849980497233 -12.09662127674  
1.19             0.453285673911671 -12.2352809023069 
1.2              0.449813001359307 -12.3936286691355 
1.21             0.447846418397472 -12.6120191515496 
1.22             0.44711387322185 -12.918661139796 
1.23             0.447338395461742 -13.329460948479 
1.24             0.448262060195958 -13.8494735424234 
1.25             0.449661783484708 -14.4751543976652 
1.26             0.451358398964239 -15.1967952697728 
1.27             0.453221007632967 -16.000810333061 
1.28             0.455168220202711 -16.8717788537659 
1.29             0.457167070437254 -17.7942872190493 
1.3              0.459229468143218 -18.7546381307399 
1.31             0.461405438639989 -19.7424255918404 
1.32             0.463772383413147 -20.7518492053046 
1.33             0.466420382815279 -21.7825242596216 
1.34             0.469435001874639 -22.8395169006954 
1.35             0.472880548217902 -23.9324569413187 
1.36             0.47678738743391 -25.0738377452902 
1.37             0.481146140236438 -26.2768887063856 
1.38             0.485909561255994 -27.5535488161454 
1.39             0.491000599468677 -28.9129979289846 
1.4              0.496323659463576 -30.3609649471442 
1.41             0.501775925304259 -31.8997648457626 
1.42             0.507256503114502 -33.5288394486964 
1.43             0.512672409814301 -35.2455297704301 
1.44             0.517941498050651 -37.045857611646 
1.45             0.522993006608325 -38.9251825032437 
1.46             0.527766594839741 -40.8786817703505 
1.47             0.532210620844523 -42.901656496116 
1.48             0.536280216959086 -44.9896937655752 
1.49             0.539935506998205 -47.1387235673168 
1.5              0.543140144652516 -49.3450059049873 
1.51             0.545860240854178 -51.6050765217599 
1.52             0.548063681298788 -53.91567193085  
1.53             0.549719800201568 -56.2736478743476 
1.54             0.550799360569185 -58.6759003771338 
1.55             0.551274785862786 -61.1192951060476 
1.56             0.551120587260322 -63.6006084570302 
1.57             0.550313931695833 -66.1164823224939 
1.58             0.5488352971094  -68.6633935410614 
1.59             0.546669162623562 -71.2376383817317 
1.6              0.543804683011733 -73.8353319161727 
1.61             0.540236299436772 -76.4524216976628 
1.62             0.535964242612531 -79.0847147509371 
1.63             0.53099489070381 -81.7279164755591 
1.64             0.525340952566126 -84.3776796912578 
1.65             0.519021457124402 -87.0296617350976 
1.66             0.512061541245818 -89.6795872900631 
1.67             0.504492040548193 -92.3233145121661 
1.68             0.496348899213669 -94.9569020488509 
1.69             0.487672425047624 -97.5766747125113 
1.7              0.478506423869291 -100.179285882047 
1.71             0.468897252237421 -102.761775131985 
1.72             0.458892829229567 -105.321620102126 
1.73             0.448541646587204 -107.856782185232 
1.74             0.437891812401678 -110.365746190137 
1.75             0.426990157265211 -112.847554702516 
1.76             0.415881424181303 -115.301838393639 
1.77             0.404607555260799 -117.728844008931 
1.78             0.393207079974426 -120.129462205498 
1.79             0.381714601983058 -122.505257815859 
1.8              0.370160374619938 -124.858505520222 
1.81             0.358569949044452 -127.192234348215 
1.82             0.346963873815947 -129.510284948269 
1.83             0.335357419857979 -131.817384211721 
1.84             0.323760300042664 -134.119242677382 
1.85             0.312176347306945 -136.422681230138 
1.86             0.300603108537181 -138.735794992861 
1.87             0.28903130246004 -141.068164006109 
1.88             0.277444077290392 -143.431122207069 
1.89             0.265815986582469 -145.838098032986 
1.9              0.254111578333696 -148.305040820987 
1.91             0.242283462380244 -150.850944993042 
1.92             0.230269686658085 -153.498474100223 
1.93             0.217990223700874 -156.274658642885 
1.94             0.20534237390281 -159.211571810324 
1.95             0.192195007682281 -162.346723780759 
1.96             0.178381979767533 -165.722540823185 
1.97             0.163696179418488 -169.383443258986 
1.98             0.14788843289498 -173.36708600626 
1.99             0.130681539081077 -177.681780944454 
2                0.111821466865948 177.748913034234 
2.01             0.0912059552157501 173.22279822993  
2.02             0.0691486478733426 169.618654344766 
2.03             0.0468557003538252 169.504309754113 
2.04             0.0274772859277114 -178.769633190783 
2.05             0.0191397830237159 -138.874442300264 
2.06             0.0251328591751229 -106.453683798654 
2.07             0.0327789041588475 -96.4333031360427 
2.08             0.0373032212421293 -92.1478809083065 
2.09             0.039049925474106 -87.3030168321763 
2.1              0.0398335970548888 -79.6504047971471 
2.11             0.0419518568029034 -69.3012269231895 
2.12             0.0472451620660622 -58.6667298706678 
2.13             0.0562130579037259 -50.4884869895944 
2.14             0.0681903042032785 -45.7038831776986 
2.15             0.0821352934362482 -43.8161518096331 
2.16             0.097080366483741 -43.9903490045703 
2.17             0.112233100223384 -45.5235768532558 
2.18             0.126974410778728 -47.9078816779318 
2.19             0.140848869675873 -50.7884075794597 
2.2              0.153556642615651 -53.9180882344157 
2.21             0.164939745075513 -57.1258023304653 
2.22             0.174959391419005 -60.2953400652609 
2.23             0.183666999974101 -63.3509099535663 
2.24             0.191173977997996 -66.2464732064407 
2.25             0.197624863353254 -68.9575437865947 
2.26             0.203176384157237 -71.4748169455546 
2.27             0.207982978820012 -73.7992838730664 
2.28             0.212187998541774 -75.9385798057951 
2.29             0.215919254749065 -77.9043351354901 
2.3              0.21928754258847 -79.7103140524869 
2.31             0.222387002174801 -81.3711494154975 
2.32             0.225296483021469 -82.9015142078776 
2.33             0.228081354605023 -84.3156033709331 
2.34             0.230795421177833 -85.6268304758666 
2.35             0.233482749590825 -86.8476693571528 
2.36             0.236179316628782 -87.9895909849468 
2.37             0.238914441632097 -89.0630609889626 
2.38             0.241712003594004 -90.077574243514 
2.39             0.2445914589768  -91.041710717983 
2.4              0.247568683739859 -91.9632022150368 
2.41             0.25065666477967 -92.8490033253068 
2.42             0.25386606479131 -93.7053624275245 
2.43             0.257205682040387 -94.5378902275296 
2.44             0.260682823571876 -95.3516244223789 
2.45             0.264303607448278 -96.1510897819865 
2.46             0.268073206930385 -96.9403533880569 
2.47             0.271996047176565 -97.7230750457352 
2.48             0.276075963053925 -98.5025530463508 
2.49             0.280316325002809 -99.2817655494803 
2.5              0.284720138535239 -100.063407895607 
2.51             0.289290121834807 -100.849926174356 
2.52             0.294028765018282 -101.643547369002 
2.53             0.298938373881058 -102.446306383103 
2.54             0.304021100347421 -103.260070234433 
2.55             0.30927896135641 -104.086559677839 
2.56             0.314713847512973 -104.927368494125 
2.57             0.320327522504896 -105.783980657583 
2.58             0.326121614014925 -106.657785571084 
2.59             0.332097596633812 -107.550091534896 
2.6              0.338256767095514 -108.462137593908 
2.61             0.344600212004471 -109.395103887589 
2.62             0.351128768102504 -110.35012060787 
2.63             0.357842975026727 -111.328275652143 
2.64             0.364743020438923 -112.330621041583 
2.65             0.371828677360818 -113.358178159122 
2.66             0.379099233530235 -114.411941846438 
2.67             0.386553412602164 -115.492883385453 
2.68             0.394189287060137 -116.601952377011 
2.69             0.402004182780983 -117.740077517786 
2.7              0.409994575315531 -118.908166266239 
2.71             0.41815597811481 -120.10710337981 
2.72             0.426482823152309 -121.337748298884 
2.73             0.434968334673926 -122.60093134875 
2.74             0.443604397154652 -123.89744872934 
2.75             0.452381418958919 -125.228056264506 
2.76             0.461288193693027 -126.593461888682 
2.77             0.470311761801853 -127.994316859644 
2.78             0.479437275593282 -129.431205702478 
2.79             0.488647871560513 -130.904634912458 
2.8              0.497924554595451 -132.415020474022 
2.81             0.507246099416681 -133.962674289697 
2.82             0.516588975233155 -135.547789657004 
2.83             0.52592730027793 -137.170425982603 
2.84             0.535232833311522 -138.830492980626 
2.85             0.544475009437169 -140.52773466466 
2.86             0.553621027509011 -142.261713507982 
2.87             0.562635995964208 -144.031795211285 
2.88             0.571483142992265 -145.837134577155 
2.89             0.580124095504695 -147.67666304115 
2.9              0.588519229347379 -149.549078444965 
2.91             0.596628090607675 -151.452837652012 
2.92             0.604409884759687 -153.386152594182 
2.93             0.611824026875634 -155.346990295709 
2.94             0.618830742384223 -157.333077342526 
2.95             0.625391704113997 -159.34190915198 
2.96             0.631470687905029 -161.370764249931 
2.97             0.637034226216333 -163.416723584613 
2.98             0.642052237205228 -165.476694707456 
2.99             0.646498605974505 -167.547440441181 
3                0.650351695262051 -169.625611448387 
