! 10/27/2017 2:35:30 PM
! C:\DOCUMENTS AND SETTINGS\VECTORSTARUSER\DESKTOP\CHUM.S2P
! CHANNEL.1
! TR.MEASUREMENT
! CORRECTED.DATA
# GHZ S RI R 50.0
! FREQ.GHZ         S11RE        S11IM         S21RE        S21IM         S12RE        S12IM         S22RE        S22IM
   1.000000000     0.3202761    0.5394740     0.0000001   -0.0000104    -0.0000160    0.0000016     0.3760356    0.4874406
   1.002000000     0.3210153    0.5359357    -0.0000023    0.0000060    -0.0000008    0.0000077     0.3794202    0.4813890
   1.004000000     0.3210331    0.5314139     0.0000096    0.0000030    -0.0000005   -0.0000071     0.3839647    0.4754180
   1.006000000     0.3217624    0.5279825    -0.0000006   -0.0000006     0.0000046   -0.0000036     0.3877741    0.4716228
   1.008000000     0.3224273    0.5247642    -0.0000051   -0.0000002     0.0000053    0.0000023     0.3899099    0.4679126
   1.010000000     0.3236154    0.5212603    -0.0000006    0.0000032     0.0000032   -0.0000012     0.3933335    0.4636489
   1.012000000     0.3243193    0.5177408    -0.0000002    0.0000031    -0.0000058   -0.0000067     0.3955151    0.4598024
   1.014000000     0.3251851    0.5143062     0.0000018    0.0000008     0.0000060    0.0000032     0.3989514    0.4560131
   1.016000000     0.3258094    0.5109848     0.0000015   -0.0000008     0.0000016    0.0000050     0.4010981    0.4526810
   1.018000000     0.3263662    0.5079166     0.0000043   -0.0000015    -0.0000007    0.0000036     0.4049260    0.4484457
   1.020000000     0.3272625    0.5043499     0.0000089   -0.0000069    -0.0000014    0.0000032     0.4072615    0.4436704
   1.022000000     0.3280050    0.5009345     0.0000062   -0.0000011     0.0000027   -0.0000072     0.4099726    0.4394214
   1.024000000     0.3285428    0.4972686     0.0000033    0.0000003     0.0000045    0.0000035     0.4124595    0.4356651
   1.026000000     0.3288005    0.4936562     0.0000044    0.0000022     0.0000009    0.0000036     0.4158521    0.4310989
   1.028000000     0.3288250    0.4904173    -0.0000012   -0.0000097     0.0000039    0.0000044     0.4188476    0.4263190
   1.030000000     0.3290710    0.4872342     0.0000008   -0.0000067    -0.0000016    0.0000009     0.4221294    0.4214167
   1.032000000     0.3296864    0.4834589     0.0000007   -0.0000082     0.0000058    0.0000112     0.4239352    0.4171762
   1.034000000     0.3303429    0.4795111     0.0000001   -0.0000029     0.0000038    0.0000024     0.4259431    0.4124856
   1.036000000     0.3299526    0.4757834     0.0000008   -0.0000002     0.0000013    0.0000019     0.4287283    0.4080222
   1.038000000     0.3297444    0.4726046     0.0000035    0.0000021    -0.0000029   -0.0000017     0.4312268    0.4038252
   1.040000000     0.3291157    0.4698336     0.0000004    0.0000030    -0.0000095   -0.0000028     0.4340154    0.3992793
   1.042000000     0.3282541    0.4667223     0.0000012   -0.0000042     0.0000011   -0.0000016     0.4358000    0.3955041
   1.044000000     0.3273825    0.4640127     0.0000033   -0.0000039     0.0000082    0.0000057     0.4380190    0.3906522
   1.046000000     0.3267006    0.4614081     0.0000001    0.0000034     0.0000063   -0.0000031     0.4401780    0.3864886
   1.048000000     0.3264419    0.4588496     0.0000011    0.0000025    -0.0000052    0.0000095     0.4424014    0.3820786
   1.050000000     0.3266048    0.4561531     0.0000058    0.0000030     0.0000021    0.0000007     0.4440868    0.3779554
   1.052000000     0.3259047    0.4543502     0.0000023   -0.0000008    -0.0000096   -0.0000063     0.4461973    0.3733868
   1.054000000     0.3256683    0.4519235     0.0000019    0.0000000     0.0000041    0.0000040     0.4477287    0.3689107
   1.056000000     0.3251460    0.4491329     0.0000051   -0.0000060    -0.0000056    0.0000108     0.4495316    0.3635889
   1.058000000     0.3245907    0.4468159     0.0000084   -0.0000092     0.0000040    0.0000027     0.4518093    0.3593102
   1.060000000     0.3236248    0.4451846     0.0000032   -0.0000071    -0.0000008    0.0000103     0.4535602    0.3545538
   1.062000000     0.3233936    0.4431664     0.0000007   -0.0000065     0.0000198   -0.0000006     0.4549380    0.3501157
   1.064000000     0.3225347    0.4418276    -0.0000041    0.0000045     0.0000192   -0.0000037     0.4561920    0.3463340
   1.066000000     0.3222311    0.4401952     0.0000086   -0.0000083    -0.0000008   -0.0000124     0.4575573    0.3416030
   1.068000000     0.3222823    0.4392025    -0.0000001   -0.0000044     0.0000087   -0.0000025     0.4588998    0.3367348
   1.070000000     0.3221221    0.4369813    -0.0000012   -0.0000069     0.0000117   -0.0000034     0.4606231    0.3317781
   1.072000000     0.3220865    0.4351276    -0.0000136   -0.0000165     0.0000086   -0.0000029     0.4618836    0.3279542
   1.074000000     0.3218575    0.4338523     0.0000012   -0.0000049     0.0000094   -0.0000014     0.4634680    0.3227828
   1.076000000     0.3218301    0.4321503    -0.0000012   -0.0000031     0.0000092    0.0000018     0.4644895    0.3191586
   1.078000000     0.3217627    0.4304985    -0.0000019   -0.0000039     0.0000202   -0.0000013     0.4649356    0.3146488
   1.080000000     0.3221217    0.4288851    -0.0000090    0.0000081     0.0000097   -0.0000027     0.4658572    0.3104055
   1.082000000     0.3222561    0.4274211    -0.0000008   -0.0000025     0.0000052   -0.0000060     0.4670136    0.3055162
   1.084000000     0.3225182    0.4252357    -0.0000025   -0.0000128     0.0000066   -0.0000070     0.4682253    0.3006610
   1.086000000     0.3215504    0.4239249     0.0000109   -0.0000081     0.0000015   -0.0000008     0.4694114    0.2961055
   1.088000000     0.3217570    0.4221303    -0.0000074   -0.0000057     0.0000069   -0.0000057     0.4696109    0.2915359
   1.090000000     0.3219554    0.4209902    -0.0000009   -0.0000004     0.0000053   -0.0000117     0.4702080    0.2875476
   1.092000000     0.3219103    0.4196807    -0.0000092   -0.0000071     0.0000059   -0.0000068     0.4711944    0.2838866
   1.094000000     0.3218817    0.4187663    -0.0000002   -0.0000047    -0.0000014   -0.0000054     0.4716167    0.2793871
   1.096000000     0.3222845    0.4167035     0.0000028   -0.0000024    -0.0000034    0.0000014     0.4720609    0.2752296
   1.098000000     0.3231134    0.4147803    -0.0000027   -0.0000035     0.0000020   -0.0000091     0.4728439    0.2708483
   1.100000000     0.3237433    0.4130544    -0.0000089   -0.0000034     0.0000067   -0.0000014     0.4730174    0.2657783
   1.102000000     0.3238854    0.4114124    -0.0000030    0.0000004    -0.0000012   -0.0000105     0.4729748    0.2618197
   1.104000000     0.3243988    0.4094925    -0.0000027   -0.0000008    -0.0000069   -0.0000122     0.4739881    0.2570830
   1.106000000     0.3245995    0.4077096    -0.0000016   -0.0000039    -0.0000091    0.0000008     0.4741977    0.2523181
   1.108000000     0.3254099    0.4054114    -0.0000054    0.0000015     0.0000055    0.0000032     0.4743135    0.2485867
   1.110000000     0.3256259    0.4035448     0.0000026   -0.0000023     0.0000037   -0.0000009     0.4744581    0.2449242
   1.112000000     0.3256596    0.4021932    -0.0000040    0.0000037     0.0000050   -0.0000080     0.4749004    0.2401565
   1.114000000     0.3258092    0.4001461    -0.0000084   -0.0000023    -0.0000085   -0.0000085     0.4747829    0.2364802
   1.116000000     0.3262359    0.3983535    -0.0000041   -0.0000032     0.0000053    0.0000047     0.4746708    0.2320102
   1.118000000     0.3264566    0.3960012    -0.0000009   -0.0000018    -0.0000023    0.0000037     0.4749903    0.2279218
   1.120000000     0.3264590    0.3935615    -0.0000018    0.0000063     0.0000010   -0.0000026     0.4748242    0.2232913
   1.122000000     0.3263150    0.3917023    -0.0000010    0.0000045    -0.0000019   -0.0000102     0.4746220    0.2197632
   1.124000000     0.3261838    0.3900677    -0.0000015    0.0000066    -0.0000005   -0.0000092     0.4751049    0.2153501
   1.126000000     0.3259603    0.3884960    -0.0000017    0.0000040    -0.0000118   -0.0000038     0.4746916    0.2115066
   1.128000000     0.3258846    0.3869759    -0.0000023    0.0000098    -0.0000116   -0.0000093     0.4745159    0.2071165
   1.130000000     0.3258654    0.3848495    -0.0000028    0.0000032    -0.0000064    0.0000007     0.4744008    0.2028792
   1.132000000     0.3262925    0.3831010    -0.0000052   -0.0000022    -0.0000006   -0.0000002     0.4736537    0.1991593
   1.134000000     0.3263652    0.3805378    -0.0000002    0.0000001     0.0000057   -0.0000043     0.4731914    0.1953521
   1.136000000     0.3262342    0.3789268    -0.0000033    0.0000005    -0.0000034   -0.0000061     0.4726904    0.1916250
   1.138000000     0.3264974    0.3774899    -0.0000034   -0.0000063    -0.0000053    0.0000003     0.4724247    0.1875068
   1.140000000     0.3261113    0.3752604    -0.0000015    0.0000055    -0.0000030    0.0000017     0.4721954    0.1837297
   1.142000000     0.3260482    0.3736141    -0.0000017    0.0000085    -0.0000025    0.0000000     0.4710320    0.1795629
   1.144000000     0.3259926    0.3721519     0.0000002    0.0000046    -0.0000084    0.0000068     0.4703683    0.1761105
   1.146000000     0.3257182    0.3705540    -0.0000022    0.0000002     0.0000097    0.0000015     0.4696120    0.1725416
   1.148000000     0.3253953    0.3685033    -0.0000040    0.0000034     0.0000035    0.0000077     0.4689703    0.1687389
   1.150000000     0.3245914    0.3674767     0.0000030    0.0000057    -0.0000007   -0.0000029     0.4689477    0.1649569
   1.152000000     0.3245864    0.3653393    -0.0000053    0.0000051    -0.0000037    0.0000011     0.4673986    0.1615409
   1.154000000     0.3246925    0.3638353    -0.0000029    0.0000044    -0.0000059   -0.0000024     0.4668697    0.1571700
   1.156000000     0.3241450    0.3628775    -0.0000042    0.0000010     0.0000075   -0.0000025     0.4660616    0.1532838
   1.158000000     0.3242877    0.3615210    -0.0000020   -0.0000023     0.0000056   -0.0000046     0.4651891    0.1498525
   1.160000000     0.3228198    0.3601636    -0.0000037    0.0000005     0.0000013    0.0000008     0.4647129    0.1457667
   1.162000000     0.3228313    0.3586503     0.0000020   -0.0000035    -0.0000097    0.0000041     0.4640580    0.1429096
   1.164000000     0.3223499    0.3570879    -0.0000042    0.0000021     0.0000025    0.0000016     0.4629239    0.1391332
   1.166000000     0.3221031    0.3556992     0.0000008   -0.0000128     0.0000005    0.0000008     0.4621751    0.1363831
   1.168000000     0.3218903    0.3542493     0.0000085    0.0000095     0.0000107   -0.0000071     0.4612273    0.1327278
   1.170000000     0.3212270    0.3527944    -0.0000105   -0.0000016    -0.0000141    0.0000052     0.4597896    0.1288504
   1.172000000     0.3208443    0.3518966    -0.0000049    0.0000078    -0.0000096   -0.0000067     0.4593667    0.1261518
   1.174000000     0.3201658    0.3505461    -0.0000029   -0.0000096    -0.0000017   -0.0000078     0.4581945    0.1225214
   1.176000000     0.3204096    0.3497695     0.0000015    0.0000032    -0.0000167    0.0000084     0.4566930    0.1192091
   1.178000000     0.3197486    0.3482479    -0.0000052    0.0000074    -0.0000037    0.0000040     0.4554947    0.1165427
   1.180000000     0.3191142    0.3474768    -0.0000117    0.0000072     0.0000089   -0.0000047     0.4542769    0.1134609
   1.182000000     0.3188293    0.3462469    -0.0000029    0.0000014    -0.0000033   -0.0000026     0.4538627    0.1102016
   1.184000000     0.3182309    0.3453100    -0.0000020    0.0000035    -0.0000060   -0.0000055     0.4525661    0.1063644
   1.186000000     0.3178435    0.3447672     0.0000056   -0.0000047    -0.0000098   -0.0000015     0.4511347    0.1036359
   1.188000000     0.3179540    0.3437196    -0.0000044   -0.0000036    -0.0000119    0.0000066     0.4497270    0.1006477
   1.190000000     0.3177746    0.3424138     0.0000006    0.0000090     0.0000075    0.0000035     0.4486700    0.0966463
   1.192000000     0.3177266    0.3413702    -0.0000117   -0.0000001    -0.0000076   -0.0000023     0.4473724    0.0934773
   1.194000000     0.3176509    0.3400778    -0.0000083    0.0000116     0.0000011    0.0000003     0.4464853    0.0914406
   1.196000000     0.3173222    0.3390876     0.0000053    0.0000029    -0.0000076   -0.0000008     0.4449057    0.0882920
   1.198000000     0.3168576    0.3384573     0.0000020    0.0000004    -0.0000001    0.0000012     0.4434472    0.0847678
   1.200000000     0.3163401    0.3376532    -0.0000066   -0.0000052     0.0000012    0.0000002     0.4420658    0.0825490
   1.202000000     0.3159006    0.3366042     0.0000047   -0.0000007    -0.0000010    0.0000033     0.4406579    0.0797832
   1.204000000     0.3154912    0.3360820     0.0000071   -0.0000067    -0.0000016    0.0000064     0.4392144    0.0762294
   1.206000000     0.3148034    0.3354717    -0.0000048    0.0000041     0.0000065   -0.0000058     0.4375166    0.0731670
   1.208000000     0.3142203    0.3347825     0.0000051    0.0000003     0.0000033    0.0000097     0.4361433    0.0702735
   1.210000000     0.3138404    0.3338911    -0.0000032    0.0000027     0.0000011    0.0000003     0.4343133    0.0679826
   1.212000000     0.3136430    0.3332603     0.0000016    0.0000081     0.0000048   -0.0000018     0.4332695    0.0658023
   1.214000000     0.3133888    0.3324987     0.0000112    0.0000011    -0.0000080    0.0000100     0.4320153    0.0627205
   1.216000000     0.3125488    0.3322411    -0.0000036    0.0000042     0.0000102   -0.0000005     0.4305474    0.0599812
   1.218000000     0.3120585    0.3318292     0.0000048    0.0000003     0.0000009    0.0000055     0.4289610    0.0569808
   1.220000000     0.3118988    0.3314863    -0.0000027    0.0000074     0.0000014    0.0000061     0.4270813    0.0552913
   1.222000000     0.3117068    0.3312805     0.0000025    0.0000069    -0.0000016    0.0000054     0.4260149    0.0521741
   1.224000000     0.3118544    0.3308741     0.0000043    0.0000054     0.0000026    0.0000104     0.4242534    0.0499516
   1.226000000     0.3116795    0.3304214     0.0000074    0.0000020     0.0000009    0.0000130     0.4225030    0.0479363
   1.228000000     0.3114635    0.3302988     0.0000025    0.0000022     0.0000001    0.0000088     0.4212801    0.0451291
   1.230000000     0.3111219    0.3298705     0.0000010   -0.0000017     0.0000051    0.0000097     0.4197310    0.0426977
   1.232000000     0.3110225    0.3293545     0.0000025    0.0000049     0.0000002    0.0000092     0.4185886    0.0405285
   1.234000000     0.3107962    0.3292476     0.0000009    0.0000111     0.0000072    0.0000117     0.4166952    0.0381068
   1.236000000     0.3110484    0.3290530    -0.0000047   -0.0000047     0.0000048    0.0000087     0.4147931    0.0363805
   1.238000000     0.3108089    0.3287135     0.0000051    0.0000082    -0.0000033    0.0000016     0.4135098    0.0342910
   1.240000000     0.3105522    0.3288412     0.0000040    0.0000131    -0.0000132    0.0000025     0.4119077    0.0315034
   1.242000000     0.3115767    0.3286206    -0.0000004   -0.0000016     0.0000132    0.0000104     0.4104421    0.0296655
   1.244000000     0.3115452    0.3289471    -0.0000006   -0.0000006    -0.0000062    0.0000031     0.4088683    0.0277272
   1.246000000     0.3122237    0.3289722     0.0000003    0.0000018    -0.0000066    0.0000028     0.4074042    0.0250427
   1.248000000     0.3127910    0.3289559     0.0000028    0.0000092    -0.0000070    0.0000028     0.4053614    0.0230945
   1.250000000     0.3125116    0.3293268     0.0000115   -0.0000004    -0.0000023    0.0000067     0.4040995    0.0209904
   1.252000000     0.3126640    0.3293977     0.0000049   -0.0000027    -0.0000047    0.0000041     0.4020520    0.0186371
   1.254000000     0.3130747    0.3294547     0.0000114   -0.0000011    -0.0000072    0.0000071     0.4008101    0.0171515
   1.256000000     0.3135260    0.3295138     0.0000086    0.0000047    -0.0000104   -0.0000036     0.3988906    0.0145960
   1.258000000     0.3144119    0.3299544    -0.0000029    0.0000000    -0.0000058    0.0000026     0.3968996    0.0128036
   1.260000000     0.3152048    0.3299578    -0.0000010    0.0000025    -0.0000035    0.0000082     0.3951102    0.0113064
   1.262000000     0.3153795    0.3301981    -0.0000009   -0.0000073    -0.0000057   -0.0000021     0.3931612    0.0090741
   1.264000000     0.3165284    0.3298383    -0.0000022    0.0000041     0.0000016    0.0000005     0.3912338    0.0070705
   1.266000000     0.3170917    0.3296461     0.0000033    0.0000023    -0.0000021   -0.0000037     0.3893786    0.0053215
   1.268000000     0.3175272    0.3295766    -0.0000040   -0.0000055    -0.0000070   -0.0000052     0.3877310    0.0029216
   1.270000000     0.3176891    0.3292280     0.0000110    0.0000032    -0.0000045   -0.0000012     0.3858869    0.0014076
   1.272000000     0.3181894    0.3295927     0.0000074    0.0000025     0.0000015   -0.0000009     0.3843958   -0.0005585
   1.274000000     0.3189585    0.3297920     0.0000025    0.0000011    -0.0000008   -0.0000066     0.3825024   -0.0019835
   1.276000000     0.3192982    0.3299660    -0.0000007   -0.0000052     0.0000012   -0.0000001     0.3808295   -0.0036536
   1.278000000     0.3203625    0.3303476     0.0000052    0.0000044     0.0000120   -0.0000051     0.3786988   -0.0059508
   1.280000000     0.3218531    0.3304737    -0.0000017    0.0000027    -0.0000051   -0.0000048     0.3771851   -0.0070234
   1.282000000     0.3229217    0.3303806     0.0000012   -0.0000003     0.0000099   -0.0000060     0.3754300   -0.0087547
   1.284000000     0.3238019    0.3302959     0.0000082   -0.0000093     0.0000003   -0.0000016     0.3735211   -0.0107344
   1.286000000     0.3247644    0.3303917     0.0000010    0.0000024     0.0000050   -0.0000071     0.3720522   -0.0117923
   1.288000000     0.3258770    0.3304508     0.0000074   -0.0000014     0.0000060    0.0000027     0.3701230   -0.0134709
   1.290000000     0.3267423    0.3305776     0.0000074   -0.0000073     0.0000066    0.0000000     0.3686622   -0.0149826
   1.292000000     0.3276463    0.3306048     0.0000047   -0.0000008     0.0000041   -0.0000036     0.3666305   -0.0161736
   1.294000000     0.3285870    0.3306541     0.0000121   -0.0000056     0.0000071   -0.0000055     0.3654686   -0.0179618
   1.296000000     0.3296765    0.3307285    -0.0000027    0.0000014     0.0000065    0.0000030     0.3638118   -0.0190277
   1.298000000     0.3309311    0.3308279    -0.0000021    0.0000035     0.0000041   -0.0000066     0.3621340   -0.0207257
   1.300000000     0.3319955    0.3307243    -0.0000003   -0.0000107     0.0000009    0.0000051     0.3604946   -0.0216230
   1.302000000     0.3333045    0.3308388     0.0000066   -0.0000001     0.0000030    0.0000032     0.3585148   -0.0228886
   1.304000000     0.3344052    0.3309841     0.0000020   -0.0000083     0.0000012    0.0000016     0.3567261   -0.0248992
   1.306000000     0.3356428    0.3307925     0.0000060   -0.0000024     0.0000057   -0.0000016     0.3550295   -0.0256264
   1.308000000     0.3369808    0.3305572     0.0000034   -0.0000019     0.0000050   -0.0000004     0.3538707   -0.0264952
   1.310000000     0.3381082    0.3310839    -0.0000010    0.0000022     0.0000058    0.0000082     0.3521413   -0.0281021
   1.312000000     0.3396550    0.3313182     0.0000011   -0.0000044     0.0000078    0.0000064     0.3504914   -0.0291675
   1.314000000     0.3410304    0.3313058     0.0000011   -0.0000052     0.0000079    0.0000008     0.3488611   -0.0307821
   1.316000000     0.3425041    0.3311258    -0.0000062   -0.0000031    -0.0000050   -0.0000044     0.3470509   -0.0319094
